LTspice 24.1.1 for Windows
Circuit: C:\Users\garre\ese_3190\hw\Draft1.net
Start Time: Tue Feb 18 14:07:39 2025
solver = Normal
Maximum thread count: 12
tnom = 27
temp = 27
method = trap
Direct Newton iteration for .op point succeeded.
Semiconductor Device Operating Points:
                        --- MOSFET Transistors ---
Name:           M2          M1
Model:         nmos        pmos
Id:          6.01e-12   -6.01e-12
Vgs:         3.00e+00    0.00e+00
Vds:         1.00e-07   -3.00e+00
Vbs:         0.00e+00    0.00e+00
Vth:         0.00e+00   -0.00e+00
Vdsat:       3.00e+00    0.00e+00
Gm:          2.00e-12    0.00e+00
Gds:         6.00e-05    0.00e+00
Gmb:         0.00e+00    0.00e+00
Cbd:         0.00e+00    0.00e+00
Cbs:         0.00e+00    0.00e+00
Cgsov:       0.00e+00    0.00e+00
Cgdov:       0.00e+00    0.00e+00
Cgbov:       0.00e+00    0.00e+00
Cgs:         0.00e+00    0.00e+00
Cgd:         0.00e+00    0.00e+00
Cgb:         0.00e+00   -0.00e+00


Total elapsed time: 0.235 seconds.

Files loaded:
C:\Users\garre\ese_3190\hw\Draft1.net
C:\Users\garre\AppData\Local\LTspice\lib\cmp\standard.mos

